
T2DC4 000:037 SEGGER J-Link V6.10i Log File (0000ms, 0016ms total)
T2DC4 000:037 DLL Compiled: Oct 25 2016 19:31:51 (0000ms, 0016ms total)
T2DC4 000:037 Logging started @ 2019-04-22 22:29 (0000ms, 0016ms total)
T2DC4 000:037 JLINK_SetWarnOutHandler(...) (0000ms, 0016ms total)
T2DC4 000:037 JLINK_OpenEx(...)
Firmware: J-Link ARM-OB STM32 compiled Aug 22 2012 19:52:04
Hardware: V7.00
S/N: 20090928
Feature(s): RDI,FlashDL,FlashBP,JFlash,GDBWEBSRV Webserver running on local port 19080 (0006ms, 0022ms total)
T2DC4 000:037   returns O.K. (0006ms, 0022ms total)
T2DC4 000:043 JLINK_SetErrorOutHandler(...) (0000ms, 0022ms total)
T2DC4 000:043 JLINK_ExecCommand("ProjectFile = "C:\Users\coocx\Desktop\cyrbt_v3\MDK-ARM\JLinkSettings.ini"", ...).   returns 0x00 (0065ms, 0087ms total)
T2DC4 000:108 JLINK_ExecCommand("Device = STM32F103ZE", ...). Device "STM32F103ZE" selected.  returns 0x00 (0000ms, 0087ms total)
T2DC4 000:108 JLINK_ExecCommand("DisableConnectionTimeout", ...).   returns 0x01 (0000ms, 0087ms total)
T2DC4 000:109 JLINK_GetHardwareVersion()  returns 0x11170 (0000ms, 0088ms total)
T2DC4 000:109 JLINK_GetDLLVersion()  returns 61009 (0000ms, 0088ms total)
T2DC4 000:109 JLINK_GetFirmwareString(...) (0000ms, 0088ms total)
T2DC4 000:109 JLINK_GetDLLVersion()  returns 61009 (0000ms, 0088ms total)
T2DC4 000:109 JLINK_GetCompileDateTime() (0000ms, 0088ms total)
T2DC4 000:109 JLINK_GetFirmwareString(...) (0000ms, 0088ms total)
T2DC4 000:109 JLINK_GetHardwareVersion()  returns 0x11170 (0000ms, 0088ms total)
T2DC4 000:109 JLINK_TIF_Select(JLINKARM_TIF_SWD)  returns 0x00 (0000ms, 0088ms total)
T2DC4 000:109 JLINK_SetSpeed(5000) (0000ms, 0088ms total)
T2DC4 000:109 JLINK_GetId() >0x108 TIF>Found SWD-DP with ID 0x1BA01477 >0x0D TIF> >0x28 TIF> >0x0D TIF> >0x28 TIF> >0x0D TIF> >0x28 TIF> >0x0D TIF> >0x28 TIF> >0x0D TIF> >0x21 TIF> >0x0D TIF> >0x28 TIF> >0x0D TIF> >0x28 TIF> >0x0D TIF> >0x28 TIF> >0x0D TIF> >0x21 TIF> >0x0D TIF> >0x21 TIF> >0x0D TIF> >0x28 TIF> >0x0D TIF> >0x21 TIF> >0x0D TIF> >0x21 TIF> >0x0D TIF> >0x28 TIF> >0x0D TIF> >0x21 TIF> >0x0D TIF> >0x21 TIF> >0x0D TIF> >0x28 TIF> >0x0D TIF> >0x21 TIF> >0x0D TIF> >0x21 TIF> >0x0D TIF>
 >0x28 TIF> >0x0D TIF> >0x21 TIF> >0x0D TIF> >0x21 TIF> >0x0D TIF> >0x28 TIF> >0x0D TIF> >0x21 TIF> >0x0D TIF> >0x21 TIF> >0x0D TIF> >0x28 TIF> >0x0D TIF> >0x21 TIF> >0x0D TIF> >0x21 TIF> >0x108 TIF>Found SWD-DP with ID 0x1BA01477 >0x0D TIF> >0x28 TIF> >0x0D TIF> >0x28 TIF> >0x0D TIF> >0x28 TIF> >0x0D TIF> >0x28 TIF> >0x0D TIF> >0x21 TIF> >0x0D TIF> >0x28 TIF> >0x0D TIF> >0x28 TIF> >0x0D TIF> >0x21 TIF> >0x0D TIF> >0x21 TIF> >0x0D TIF> >0x21 TIF>AP-IDR: 0x14770011, Type: AHB-AP >0x0D TIF> >0x28 TIF>
 >0x0D TIF> >0x28 TIF> >0x0D TIF> >0x28 TIF> >0x0D TIF> >0x21 TIF> >0x0D TIF> >0x21 TIF> >0x0D TIF> >0x28 TIF> >0x0D TIF> >0x21 TIF> >0x0D TIF> >0x21 TIF>Found Cortex-M3 r1p1, Little endian. -- CPU_ReadMem(4 bytes @ 0xE000EDF0) -- CPU_WriteMem(4 bytes @ 0xE000EDF0) -- CPU_ReadMem(4 bytes @ 0xE0002000)FPUnit: 6 code (BP) slots and 2 literal slots -- CPU_ReadMem(4 bytes @ 0xE000EDFC) -- CPU_WriteMem(4 bytes @ 0xE000EDFC) -- CPU_ReadMem(4 bytes @ 0xE0001000) -- CPU_WriteMem(4 bytes @ 0xE0001000)
 -- CPU_ReadMem(4 bytes @ 0xE000ED88) -- CPU_WriteMem(4 bytes @ 0xE000ED88) -- CPU_ReadMem(4 bytes @ 0xE000ED88) -- CPU_WriteMem(4 bytes @ 0xE000ED88)CoreSight components:ROMTbl 0 @ E00FF000 -- CPU_ReadMem(16 bytes @ 0xE00FF000) -- CPU_ReadMem(16 bytes @ 0xE000EFF0) -- CPU_ReadMem(16 bytes @ 0xE000EFE0)ROMTbl 0 [0]: FFF0F000, CID: B105E00D, PID: 001BB000 SCS -- CPU_ReadMem(16 bytes @ 0xE0001FF0) -- CPU_ReadMem(16 bytes @ 0xE0001FE0)ROMTbl 0 [1]: FFF02000, CID: B105E00D, PID: 001BB002 DWT
 -- CPU_ReadMem(16 bytes @ 0xE0002FF0) -- CPU_ReadMem(16 bytes @ 0xE0002FE0)ROMTbl 0 [2]: FFF03000, CID: B105E00D, PID: 000BB003 FPB -- CPU_ReadMem(16 bytes @ 0xE0000FF0) -- CPU_ReadMem(16 bytes @ 0xE0000FE0)ROMTbl 0 [3]: FFF01000, CID: B105E00D, PID: 001BB001 ITM -- CPU_ReadMem(16 bytes @ 0xE00FF010) -- CPU_ReadMem(16 bytes @ 0xE0040FF0) -- CPU_ReadMem(16 bytes @ 0xE0040FE0)ROMTbl 0 [4]: FFF41000, CID: B105900D, PID: 001BB923 TPIU-Lite -- CPU_ReadMem(16 bytes @ 0xE0041FF0)
 -- CPU_ReadMem(16 bytes @ 0xE0041FE0)ROMTbl 0 [5]: FFF42000, CID: B105900D, PID: 101BB924 ETM-M3 >0x0D TIF> >0x21 TIF>  returns 0x1BA01477 (0029ms, 0117ms total)
T2DC4 000:138 JLINK_GetDLLVersion()  returns 61009 (0000ms, 0117ms total)
T2DC4 000:138 JLINK_CORE_GetFound()  returns 0x30000FF (0000ms, 0117ms total)
T2DC4 000:138 JLINK_GetDebugInfo(0x100) -- Value=0xE00FF000  returns 0x00 (0000ms, 0117ms total)
T2DC4 000:138 JLINK_GetDebugInfo(0x100) -- Value=0xE00FF000  returns 0x00 (0000ms, 0117ms total)
T2DC4 000:138 JLINK_GetDebugInfo(0x101) -- Value=0xE0041000  returns 0x00 (0001ms, 0118ms total)
T2DC4 000:139 JLINK_GetDebugInfo(0x102) -- Value=0x00000000  returns 0x00 (0000ms, 0118ms total)
T2DC4 000:139 JLINK_GetDebugInfo(0x103) -- Value=0xE0040000  returns 0x00 (0000ms, 0118ms total)
T2DC4 000:139 JLINK_GetDebugInfo(0x104) -- Value=0xE0000000  returns 0x00 (0000ms, 0118ms total)
T2DC4 000:139 JLINK_GetDebugInfo(0x105) -- Value=0xE0001000  returns 0x00 (0000ms, 0118ms total)
T2DC4 000:139 JLINK_GetDebugInfo(0x106) -- Value=0xE0002000  returns 0x00 (0000ms, 0118ms total)
T2DC4 000:139 JLINK_GetDebugInfo(0x107) -- Value=0xE000E000  returns 0x00 (0000ms, 0118ms total)
T2DC4 000:139 JLINK_GetDebugInfo(0x10C) -- Value=0xE000EDF0  returns 0x00 (0000ms, 0118ms total)
T2DC4 000:139 JLINK_ReadMemU32(0xE000ED00, 0x0001 Items, ...) -- CPU is running -- CPU_ReadMem(4 bytes @ 0xE000ED00) - Data: 31 C2 1F 41  returns 0x01 (0000ms, 0118ms total)
T2DC4 000:139 JLINK_SetResetType(JLINKARM_RESET_TYPE_NORMAL)  returns JLINKARM_RESET_TYPE_NORMAL (0000ms, 0118ms total)
T2DC4 000:139 JLINK_Reset() -- CPU is running -- CPU_WriteMem(4 bytes @ 0xE000EDF0) -- CPU is running -- CPU_WriteMem(4 bytes @ 0xE000EDFC) >0x35 TIF> -- CPU is running -- CPU_WriteMem(4 bytes @ 0xE000ED0C) -- CPU is running -- CPU_ReadMem(4 bytes @ 0xE000EDF0) -- CPU is running -- CPU_ReadMem(4 bytes @ 0xE000EDF0) -- CPU is running -- CPU_WriteMem(4 bytes @ 0xE000EDF0) -- CPU is running -- CPU_WriteMem(4 bytes @ 0xE000EDFC) -- CPU is running -- CPU_ReadMem(4 bytes @ 0xE000EDF0)
 -- CPU_WriteMem(4 bytes @ 0xE0002000) -- CPU_ReadMem(4 bytes @ 0xE000EDFC) -- CPU_ReadMem(4 bytes @ 0xE0001000) (0018ms, 0136ms total)
T2DC4 000:157 JLINK_ReadReg(R15 (PC))  returns 0x08000144 (0000ms, 0136ms total)
T2DC4 000:157 JLINK_ReadReg(XPSR)  returns 0x01000000 (0000ms, 0136ms total)
T2DC4 000:157 JLINK_Halt()  returns 0x00 (0000ms, 0136ms total)
T2DC4 000:157 JLINK_IsHalted()  returns TRUE (0000ms, 0136ms total)
T2DC4 000:157 JLINK_ReadMemU32(0xE000EDF0, 0x0001 Items, ...) -- CPU_ReadMem(4 bytes @ 0xE000EDF0) - Data: 03 00 03 00  returns 0x01 (0001ms, 0137ms total)
T2DC4 000:158 JLINK_WriteU32(0xE000EDF0, 0xA05F0003) -- CPU_WriteMem(4 bytes @ 0xE000EDF0)  returns 0x00 (0000ms, 0137ms total)
T2DC4 000:158 JLINK_WriteU32(0xE000EDFC, 0x01000000) -- CPU_WriteMem(4 bytes @ 0xE000EDFC)  returns 0x00 (0001ms, 0138ms total)
T2DC4 000:159 JLINK_GetHWStatus(...)  returns 0x00 (0000ms, 0138ms total)
T2DC4 000:159 JLINK_GetNumBPUnits(Type = 0xFFFFFF00)  returns 0x06 (0000ms, 0138ms total)
T2DC4 000:159 JLINK_GetNumBPUnits(Type = 0xF0)  returns 0x2000 (0000ms, 0138ms total)
T2DC4 000:159 JLINK_GetNumWPUnits()  returns 0x04 (0000ms, 0138ms total)
T2DC4 000:159 JLINK_GetSpeed()  returns 0xFA0 (0000ms, 0138ms total)
T2DC4 000:159 JLINK_ReadMemU32(0xE000E004, 0x0001 Items, ...) -- CPU_ReadMem(4 bytes @ 0xE000E004) - Data: 01 00 00 00  returns 0x01 (0000ms, 0138ms total)
T2DC4 000:159 JLINK_ReadMemU32(0xE000E004, 0x0001 Items, ...) -- CPU_ReadMem(4 bytes @ 0xE000E004) - Data: 01 00 00 00  returns 0x01 (0001ms, 0139ms total)
T2DC4 000:160 JLINK_WriteMem(0xE0001000, 0x001C Bytes, ...) - Data: 01 00 00 00 00 00 00 00 00 00 00 00 00 00 00 00 ... -- CPU_WriteMem(28 bytes @ 0xE0001000)  returns 0x1C (0001ms, 0140ms total)
T2DC4 000:161 JLINK_ReadMem (0xE0001000, 0x001C Bytes, ...) -- CPU_ReadMem(28 bytes @ 0xE0001000) - Data: 01 00 00 40 00 00 00 00 00 00 00 00 00 00 00 00 ...  returns 0x00 (0001ms, 0141ms total)
T2DC4 000:162 JLINK_ReadReg(R15 (PC))  returns 0x08000144 (0000ms, 0141ms total)
T2DC4 000:162 JLINK_ReadReg(XPSR)  returns 0x01000000 (0000ms, 0141ms total)
T2DC4 000:164 JLINK_ReadMem (0xE0001004, 0x0004 Bytes, ...) - Data: 00 00 00 00  returns 0x00 (0000ms, 0141ms total)
T2DC4 000:237 JLINK_SetResetType(JLINKARM_RESET_TYPE_NORMAL)  returns JLINKARM_RESET_TYPE_NORMAL (0000ms, 0141ms total)
T2DC4 000:238 JLINK_Reset() -- CPU_WriteMem(4 bytes @ 0xE000EDF0) -- CPU_WriteMem(4 bytes @ 0xE000EDFC) >0x35 TIF> -- CPU_WriteMem(4 bytes @ 0xE000ED0C) -- CPU_ReadMem(4 bytes @ 0xE000EDF0) -- CPU_ReadMem(4 bytes @ 0xE000EDF0) -- CPU_WriteMem(4 bytes @ 0xE000EDF0) -- CPU_WriteMem(4 bytes @ 0xE000EDFC) -- CPU is running -- CPU_ReadMem(4 bytes @ 0xE000EDF0) -- CPU_WriteMem(4 bytes @ 0xE0002000) -- CPU_ReadMem(4 bytes @ 0xE000EDFC) -- CPU_ReadMem(4 bytes @ 0xE0001000) (0016ms, 0158ms total)
T2DC4 000:254 JLINK_ReadReg(R15 (PC))  returns 0x08000144 (0000ms, 0158ms total)
T2DC4 000:254 JLINK_ReadReg(XPSR)  returns 0x01000000 (0000ms, 0158ms total)
T2DC4 000:344 JLINK_ReadMem (0x40011400, 0x000C Bytes, ...) -- CPU_ReadMem(12 bytes @ 0x40011400) - Data: 44 44 44 44 44 44 44 44 00 00 00 00  returns 0x00 (0001ms, 0159ms total)
T2DC4 000:345 JLINK_ReadMem (0x4001140C, 0x0004 Bytes, ...) -- CPU_ReadMem(4 bytes @ 0x4001140C) - Data: 00 00 00 00  returns 0x00 (0000ms, 0159ms total)
T2DC4 000:345 JLINK_ReadMem (0x40011418, 0x0004 Bytes, ...) -- CPU_ReadMem(4 bytes @ 0x40011418) - Data: 00 00 00 00  returns 0x00 (0001ms, 0160ms total)
T2DC4 000:371 JLINK_ReadMem (0x40012000, 0x000C Bytes, ...) -- CPU_ReadMem(12 bytes @ 0x40012000) - Data: 44 44 44 44 44 44 44 44 00 00 00 00  returns 0x00 (0001ms, 0161ms total)
T2DC4 000:372 JLINK_ReadMem (0x4001200C, 0x0004 Bytes, ...) -- CPU_ReadMem(4 bytes @ 0x4001200C) - Data: 00 00 00 00  returns 0x00 (0001ms, 0162ms total)
T2DC4 000:373 JLINK_ReadMem (0x40012018, 0x0004 Bytes, ...) -- CPU_ReadMem(4 bytes @ 0x40012018) - Data: 00 00 00 00  returns 0x00 (0000ms, 0162ms total)
T2DC4 001:517 JLINK_ReadMem (0x2000000C, 0x0004 Bytes, ...) -- CPU_ReadMem(64 bytes @ 0x20000000) -- Updating C cache (64 bytes @ 0x20000000) -- Read from C cache (4 bytes @ 0x2000000C) - Data: 00 A2 4A 04  returns 0x00 (0001ms, 0163ms total)
T2DC4 001:527 JLINK_ReadMem (0x4001140C, 0x0004 Bytes, ...) -- CPU_ReadMem(4 bytes @ 0x4001140C) - Data: 00 00 00 00  returns 0x00 (0001ms, 0164ms total)
T2DC4 001:528 JLINK_ReadMem (0x4001140C, 0x0004 Bytes, ...) -- CPU_ReadMem(4 bytes @ 0x4001140C) - Data: 00 00 00 00  returns 0x00 (0001ms, 0165ms total)
T2DC4 001:529 JLINK_ReadMem (0x4001140C, 0x0004 Bytes, ...) -- CPU_ReadMem(4 bytes @ 0x4001140C) - Data: 00 00 00 00  returns 0x00 (0000ms, 0165ms total)
T2DC4 001:533 JLINK_ReadMem (0x4001200C, 0x0004 Bytes, ...) -- CPU_ReadMem(4 bytes @ 0x4001200C) - Data: 00 00 00 00  returns 0x00 (0001ms, 0166ms total)
T2DC4 001:535 JLINK_ReadMem (0x4001200C, 0x0004 Bytes, ...) -- CPU_ReadMem(4 bytes @ 0x4001200C) - Data: 00 00 00 00  returns 0x00 (0000ms, 0166ms total)
T2DC4 001:535 JLINK_ReadMem (0x4001200C, 0x0004 Bytes, ...) -- CPU_ReadMem(4 bytes @ 0x4001200C) - Data: 00 00 00 00  returns 0x00 (0000ms, 0166ms total)
T2DC4 001:540 JLINK_ReadMem (0x40011408, 0x0004 Bytes, ...) -- CPU_ReadMem(4 bytes @ 0x40011408) - Data: 00 00 00 00  returns 0x00 (0001ms, 0167ms total)
T2DC4 001:541 JLINK_ReadMem (0x40011408, 0x0004 Bytes, ...) -- CPU_ReadMem(4 bytes @ 0x40011408) - Data: 00 00 00 00  returns 0x00 (0001ms, 0168ms total)
T2DC4 001:542 JLINK_ReadMem (0x40011408, 0x0004 Bytes, ...) -- CPU_ReadMem(4 bytes @ 0x40011408) - Data: 00 00 00 00  returns 0x00 (0000ms, 0168ms total)
T2DC4 001:547 JLINK_ReadMem (0x40012008, 0x0004 Bytes, ...) -- CPU_ReadMem(4 bytes @ 0x40012008) - Data: 00 00 00 00  returns 0x00 (0000ms, 0168ms total)
T2DC4 001:548 JLINK_ReadMem (0x40012008, 0x0004 Bytes, ...) -- CPU_ReadMem(4 bytes @ 0x40012008) - Data: 00 00 00 00  returns 0x00 (0000ms, 0168ms total)
T2DC4 001:548 JLINK_ReadMem (0x40012008, 0x0004 Bytes, ...) -- CPU_ReadMem(4 bytes @ 0x40012008) - Data: 00 00 00 00  returns 0x00 (0001ms, 0169ms total)
T409C 001:571 JLINK_SetBPEx(Addr = 0x08007348, Type = 0xFFFFFFF2)  returns 0x00000001 (0000ms, 0169ms total)
T409C 001:571 JLINK_SetBPEx(Addr = 0x08006364, Type = 0xFFFFFFF2)  returns 0x00000002 (0000ms, 0169ms total)
T409C 001:571 JLINK_SetBPEx(Addr = 0x080064DC, Type = 0xFFFFFFF2)  returns 0x00000003 (0000ms, 0169ms total)
T409C 001:571 JLINK_SetBPEx(Addr = 0x08006952, Type = 0xFFFFFFF2)  returns 0x00000004 (0000ms, 0169ms total)
T409C 001:571 JLINK_SetBPEx(Addr = 0x080073B6, Type = 0xFFFFFFF2)  returns 0x00000005 (0000ms, 0169ms total)
T409C 001:571 JLINK_Go() -- CPU_WriteMem(4 bytes @ 0xE0002000) -- CPU_WriteMem(4 bytes @ 0xE0002000) -- CPU_WriteMem(4 bytes @ 0xE0002000) -- CPU_WriteMem(4 bytes @ 0xE0002000) -- CPU_WriteMem(4 bytes @ 0xE0002000) -- CPU_ReadMem(4 bytes @ 0xE0001000) -- CPU_WriteMem(4 bytes @ 0xE0002008) -- CPU_WriteMem(4 bytes @ 0xE000200C) -- CPU_WriteMem(4 bytes @ 0xE0002010) -- CPU_WriteMem(4 bytes @ 0xE0002014) -- CPU_WriteMem(4 bytes @ 0xE0002018) -- CPU_WriteMem(4 bytes @ 0xE000201C)
 -- CPU_WriteMem(4 bytes @ 0xE0001004) (0007ms, 0176ms total)
T409C 001:678 JLINK_IsHalted()  returns TRUE (0003ms, 0179ms total)
T409C 001:681 JLINK_Halt()  returns 0x00 (0000ms, 0176ms total)
T409C 001:681 JLINK_IsHalted()  returns TRUE (0000ms, 0176ms total)
T409C 001:681 JLINK_IsHalted()  returns TRUE (0000ms, 0176ms total)
T409C 001:681 JLINK_IsHalted()  returns TRUE (0000ms, 0176ms total)
T409C 001:681 JLINK_ReadReg(R15 (PC))  returns 0x08007348 (0000ms, 0176ms total)
T409C 001:681 JLINK_ReadReg(XPSR)  returns 0x61000000 (0000ms, 0176ms total)
T409C 001:681 JLINK_ClrBPEx(BPHandle = 0x00000001)  returns 0x00 (0000ms, 0176ms total)
T409C 001:681 JLINK_ClrBPEx(BPHandle = 0x00000002)  returns 0x00 (0000ms, 0176ms total)
T409C 001:681 JLINK_ClrBPEx(BPHandle = 0x00000003)  returns 0x00 (0000ms, 0176ms total)
T409C 001:681 JLINK_ClrBPEx(BPHandle = 0x00000004)  returns 0x00 (0000ms, 0176ms total)
T409C 001:681 JLINK_ClrBPEx(BPHandle = 0x00000005)  returns 0x00 (0000ms, 0176ms total)
T409C 001:681 JLINK_ReadMemU32(0xE000ED30, 0x0001 Items, ...) -- CPU_ReadMem(4 bytes @ 0xE000ED30) - Data: 03 00 00 00  returns 0x01 (0001ms, 0177ms total)
T409C 001:682 JLINK_ReadMemU32(0xE0001028, 0x0001 Items, ...) -- CPU_ReadMem(4 bytes @ 0xE0001028) - Data: 00 00 00 00  returns 0x01 (0000ms, 0177ms total)
T409C 001:682 JLINK_ReadMemU32(0xE0001038, 0x0001 Items, ...) -- CPU_ReadMem(4 bytes @ 0xE0001038) - Data: 00 02 00 00  returns 0x01 (0001ms, 0178ms total)
T409C 001:683 JLINK_ReadMemU32(0xE0001048, 0x0001 Items, ...) -- CPU_ReadMem(4 bytes @ 0xE0001048) - Data: 00 00 00 00  returns 0x01 (0000ms, 0178ms total)
T409C 001:683 JLINK_ReadMemU32(0xE0001058, 0x0001 Items, ...) -- CPU_ReadMem(4 bytes @ 0xE0001058) - Data: 00 00 00 00  returns 0x01 (0000ms, 0178ms total)
T409C 001:683 JLINK_ReadReg(R0)  returns 0x08007349 (0001ms, 0179ms total)
T409C 001:684 JLINK_ReadReg(R1)  returns 0x20000DD8 (0000ms, 0179ms total)
T409C 001:684 JLINK_ReadReg(R2)  returns 0x00000000 (0000ms, 0179ms total)
T409C 001:684 JLINK_ReadReg(R3)  returns 0x08004B3F (0000ms, 0179ms total)
T409C 001:684 JLINK_ReadReg(R4)  returns 0x08007B2C (0000ms, 0179ms total)
T409C 001:684 JLINK_ReadReg(R5)  returns 0x08007B2C (0000ms, 0179ms total)
T409C 001:684 JLINK_ReadReg(R6)  returns 0x00000000 (0000ms, 0179ms total)
T409C 001:684 JLINK_ReadReg(R7)  returns 0x00000000 (0000ms, 0179ms total)
T409C 001:684 JLINK_ReadReg(R8)  returns 0x00000000 (0000ms, 0179ms total)
T409C 001:684 JLINK_ReadReg(R9)  returns 0x20000160 (0000ms, 0179ms total)
T409C 001:684 JLINK_ReadReg(R10)  returns 0x00000000 (0000ms, 0179ms total)
T409C 001:684 JLINK_ReadReg(R11)  returns 0x00000000 (0000ms, 0179ms total)
T409C 001:684 JLINK_ReadReg(R12)  returns 0x00000004 (0000ms, 0179ms total)
T409C 001:684 JLINK_ReadReg(R13 (SP))  returns 0x20000DD8 (0000ms, 0179ms total)
T409C 001:684 JLINK_ReadReg(R14)  returns 0x08000F21 (0000ms, 0179ms total)
T409C 001:684 JLINK_ReadReg(R15 (PC))  returns 0x08007348 (0000ms, 0179ms total)
T409C 001:684 JLINK_ReadReg(XPSR)  returns 0x61000000 (0000ms, 0179ms total)
T409C 001:684 JLINK_ReadReg(MSP)  returns 0x20000DD8 (0000ms, 0179ms total)
T409C 001:684 JLINK_ReadReg(PSP)  returns 0x20001000 (0000ms, 0179ms total)
T409C 001:684 JLINK_ReadReg(CFBP)  returns 0x00000000 (0000ms, 0179ms total)
T2DC4 001:685 JLINK_ReadMem (0x00000000, 0x0004 Bytes, ...) -- CPU_ReadMem(4 bytes @ 0x00000004) -- CPU_ReadMem(64 bytes @ 0x08000000) -- Updating C cache (64 bytes @ 0x08000000) -- Read from C cache (4 bytes @ 0x08000000) - Data: D8 0D 00 20  returns 0x00 (0001ms, 0180ms total)
T2DC4 001:688 JLINK_ReadMem (0x2000000C, 0x0004 Bytes, ...) -- CPU_ReadMem(64 bytes @ 0x20000000) -- Updating C cache (64 bytes @ 0x20000000) -- Read from C cache (4 bytes @ 0x2000000C) - Data: 00 A2 4A 04  returns 0x00 (0001ms, 0181ms total)
T2DC4 001:689 JLINK_ReadMem (0x4001140C, 0x0004 Bytes, ...) -- CPU_ReadMem(4 bytes @ 0x4001140C) - Data: 00 00 00 00  returns 0x00 (0000ms, 0181ms total)
T2DC4 001:689 JLINK_ReadMem (0x4001200C, 0x0004 Bytes, ...) -- CPU_ReadMem(4 bytes @ 0x4001200C) - Data: 00 00 00 00  returns 0x00 (0001ms, 0182ms total)
T2DC4 001:690 JLINK_ReadMem (0x40011408, 0x0004 Bytes, ...) -- CPU_ReadMem(4 bytes @ 0x40011408) - Data: 00 00 00 00  returns 0x00 (0000ms, 0182ms total)
T2DC4 001:690 JLINK_ReadMem (0x40012008, 0x0004 Bytes, ...) -- CPU_ReadMem(4 bytes @ 0x40012008) - Data: 00 00 00 00  returns 0x00 (0001ms, 0183ms total)
T2DC4 001:691 JLINK_ReadMem (0x40012000, 0x000C Bytes, ...) -- CPU_ReadMem(12 bytes @ 0x40012000) - Data: 44 44 44 44 44 44 44 44 00 00 00 00  returns 0x00 (0001ms, 0184ms total)
T2DC4 001:692 JLINK_ReadMem (0x4001200C, 0x0004 Bytes, ...) -- CPU_ReadMem(4 bytes @ 0x4001200C) - Data: 00 00 00 00  returns 0x00 (0000ms, 0184ms total)
T2DC4 001:692 JLINK_ReadMem (0x40012018, 0x0004 Bytes, ...) -- CPU_ReadMem(4 bytes @ 0x40012018) - Data: 00 00 00 00  returns 0x00 (0001ms, 0185ms total)
T2DC4 001:693 JLINK_ReadMem (0x40011400, 0x000C Bytes, ...) -- CPU_ReadMem(12 bytes @ 0x40011400) - Data: 44 44 44 44 44 44 44 44 00 00 00 00  returns 0x00 (0000ms, 0185ms total)
T2DC4 001:693 JLINK_ReadMem (0x4001140C, 0x0004 Bytes, ...) -- CPU_ReadMem(4 bytes @ 0x4001140C) - Data: 00 00 00 00  returns 0x00 (0001ms, 0186ms total)
T2DC4 001:694 JLINK_ReadMem (0x40011418, 0x0004 Bytes, ...) -- CPU_ReadMem(4 bytes @ 0x40011418) - Data: 00 00 00 00  returns 0x00 (0000ms, 0186ms total)
T2DC4 001:807 JLINK_SetResetType(JLINKARM_RESET_TYPE_NORMAL)  returns JLINKARM_RESET_TYPE_NORMAL (0000ms, 0186ms total)
T2DC4 001:807 JLINK_Reset() -- CPU_WriteMem(4 bytes @ 0xE000EDF0) -- CPU_WriteMem(4 bytes @ 0xE000EDFC) >0x35 TIF> -- CPU_WriteMem(4 bytes @ 0xE000ED0C) -- CPU_ReadMem(4 bytes @ 0xE000EDF0) -- CPU_ReadMem(4 bytes @ 0xE000EDF0) -- CPU_WriteMem(4 bytes @ 0xE000EDF0) -- CPU_WriteMem(4 bytes @ 0xE000EDFC) -- CPU is running -- CPU_ReadMem(4 bytes @ 0xE000EDF0) -- CPU_WriteMem(4 bytes @ 0xE0002000) -- CPU_ReadMem(4 bytes @ 0xE000EDFC) -- CPU_ReadMem(4 bytes @ 0xE0001000) (0017ms, 0203ms total)
T2DC4 001:824 JLINK_ReadReg(R15 (PC))  returns 0x08000144 (0000ms, 0203ms total)
T2DC4 001:824 JLINK_ReadReg(XPSR)  returns 0x01000000 (0000ms, 0203ms total)
T2DC4 001:871 JLINK_ReadMem (0x2000000C, 0x0004 Bytes, ...) -- CPU_ReadMem(64 bytes @ 0x20000000) -- Updating C cache (64 bytes @ 0x20000000) -- Read from C cache (4 bytes @ 0x2000000C) - Data: 00 A2 4A 04  returns 0x00 (0002ms, 0205ms total)
T2DC4 001:873 JLINK_ReadMem (0x4001140C, 0x0004 Bytes, ...) -- CPU_ReadMem(4 bytes @ 0x4001140C) - Data: 00 00 00 00  returns 0x00 (0000ms, 0205ms total)
T2DC4 001:873 JLINK_ReadMem (0x4001200C, 0x0004 Bytes, ...) -- CPU_ReadMem(4 bytes @ 0x4001200C) - Data: 00 00 00 00  returns 0x00 (0001ms, 0206ms total)
T2DC4 001:874 JLINK_ReadMem (0x40011408, 0x0004 Bytes, ...) -- CPU_ReadMem(4 bytes @ 0x40011408) - Data: 00 00 00 00  returns 0x00 (0000ms, 0206ms total)
T2DC4 001:874 JLINK_ReadMem (0x40012008, 0x0004 Bytes, ...) -- CPU_ReadMem(4 bytes @ 0x40012008) - Data: 00 00 00 00  returns 0x00 (0000ms, 0206ms total)
T409C 002:358 JLINK_SetBPEx(Addr = 0x08006364, Type = 0xFFFFFFF2)  returns 0x00000006 (0000ms, 0206ms total)
T409C 002:358 JLINK_SetBPEx(Addr = 0x080064DC, Type = 0xFFFFFFF2)  returns 0x00000007 (0000ms, 0206ms total)
T409C 002:358 JLINK_SetBPEx(Addr = 0x08006952, Type = 0xFFFFFFF2)  returns 0x00000008 (0000ms, 0206ms total)
T409C 002:358 JLINK_SetBPEx(Addr = 0x080073B6, Type = 0xFFFFFFF2)  returns 0x00000009 (0000ms, 0206ms total)
T409C 002:358 JLINK_Go() -- CPU_WriteMem(4 bytes @ 0xE0002000) -- CPU_WriteMem(4 bytes @ 0xE0002000) -- CPU_WriteMem(4 bytes @ 0xE0002000) -- CPU_WriteMem(4 bytes @ 0xE0002000) -- CPU_ReadMem(4 bytes @ 0xE0001000) -- CPU_WriteMem(4 bytes @ 0xE0002008) -- CPU_WriteMem(4 bytes @ 0xE000200C) -- CPU_WriteMem(4 bytes @ 0xE0002010) -- CPU_WriteMem(4 bytes @ 0xE0002014) -- CPU_WriteMem(4 bytes @ 0xE0002018) -- CPU_WriteMem(4 bytes @ 0xE000201C) -- CPU_WriteMem(4 bytes @ 0xE0001004) (0006ms, 0212ms total)
T409C 002:465 JLINK_IsHalted()  returns FALSE (0000ms, 0212ms total)
T409C 002:566 JLINK_IsHalted()  returns FALSE (0000ms, 0212ms total)
T409C 002:667 JLINK_IsHalted()  returns FALSE (0000ms, 0212ms total)
T409C 002:767 JLINK_IsHalted()  returns FALSE (0000ms, 0212ms total)
T409C 002:868 JLINK_IsHalted()  returns FALSE (0000ms, 0212ms total)
T409C 002:970 JLINK_ReadMemU32(0xE0001004, 0x0001 Items, ...) -- CPU is running -- CPU_ReadMem(4 bytes @ 0xE0001004) - Data: 38 2C 98 02  returns 0x01 (0000ms, 0212ms total)
T2DC4 002:976 JLINK_ReadMem (0x2000000C, 0x0004 Bytes, ...) -- CPU is running -- CPU_ReadMem(4 bytes @ 0x2000000C) - Data: 00 A2 4A 04  returns 0x00 (0001ms, 0213ms total)
T2DC4 002:977 JLINK_ReadMem (0x4001140C, 0x0004 Bytes, ...) -- CPU is running -- CPU_ReadMem(4 bytes @ 0x4001140C) - Data: FF 00 00 00  returns 0x00 (0000ms, 0213ms total)
T2DC4 002:977 JLINK_ReadMem (0x4001200C, 0x0004 Bytes, ...) -- CPU is running -- CPU_ReadMem(4 bytes @ 0x4001200C) - Data: 00 FE 00 00  returns 0x00 (0001ms, 0214ms total)
T2DC4 002:978 JLINK_ReadMem (0x40011408, 0x0004 Bytes, ...) -- CPU is running -- CPU_ReadMem(4 bytes @ 0x40011408) - Data: FF A3 00 00  returns 0x00 (0000ms, 0214ms total)
T2DC4 002:978 JLINK_ReadMem (0x40012008, 0x0004 Bytes, ...) -- CPU is running -- CPU_ReadMem(4 bytes @ 0x40012008) - Data: 04 FE 00 00  returns 0x00 (0001ms, 0215ms total)
T2DC4 002:979 JLINK_ReadMem (0x40012000, 0x000C Bytes, ...) -- CPU is running -- CPU_ReadMem(12 bytes @ 0x40012000) - Data: 22 44 44 44 24 22 22 22 04 FE 00 00  returns 0x00 (0000ms, 0215ms total)
T2DC4 002:979 JLINK_ReadMem (0x4001200C, 0x0004 Bytes, ...) -- CPU is running -- CPU_ReadMem(4 bytes @ 0x4001200C) - Data: 00 FE 00 00  returns 0x00 (0001ms, 0216ms total)
T2DC4 002:980 JLINK_ReadMem (0x40012018, 0x0004 Bytes, ...) -- CPU is running -- CPU_ReadMem(4 bytes @ 0x40012018) - Data: 00 00 00 00  returns 0x00 (0000ms, 0216ms total)
T2DC4 002:986 JLINK_ReadMem (0x40011400, 0x000C Bytes, ...) -- CPU is running -- CPU_ReadMem(12 bytes @ 0x40011400) - Data: 22 22 22 22 4B 22 42 42 FF A3 00 00  returns 0x00 (0001ms, 0217ms total)
T2DC4 002:987 JLINK_ReadMem (0x4001140C, 0x0004 Bytes, ...) -- CPU is running -- CPU_ReadMem(4 bytes @ 0x4001140C) - Data: FF 00 00 00  returns 0x00 (0000ms, 0217ms total)
T2DC4 002:987 JLINK_ReadMem (0x40011418, 0x0004 Bytes, ...) -- CPU is running -- CPU_ReadMem(4 bytes @ 0x40011418) - Data: 00 00 00 00  returns 0x00 (0001ms, 0218ms total)
T409C 002:988 JLINK_IsHalted()  returns FALSE (0001ms, 0219ms total)
T409C 003:089 JLINK_IsHalted()  returns FALSE (0001ms, 0219ms total)
T409C 003:191 JLINK_IsHalted()  returns FALSE (0000ms, 0218ms total)
T409C 003:292 JLINK_IsHalted()  returns FALSE (0000ms, 0218ms total)
T409C 003:393 JLINK_IsHalted()  returns FALSE (0000ms, 0218ms total)
T409C 003:494 JLINK_ReadMemU32(0xE0001004, 0x0001 Items, ...) -- CPU is running - Data: 38 2C 98 02  returns 0x01 (0000ms, 0218ms total)
T2DC4 003:498 JLINK_ReadMem (0x2000000C, 0x0004 Bytes, ...) -- CPU is running -- CPU_ReadMem(4 bytes @ 0x2000000C) - Data: 00 A2 4A 04  returns 0x00 (0001ms, 0219ms total)
T2DC4 003:499 JLINK_ReadMem (0x4001140C, 0x0004 Bytes, ...) -- CPU is running -- CPU_ReadMem(4 bytes @ 0x4001140C) - Data: FF 00 00 00  returns 0x00 (0000ms, 0219ms total)
T2DC4 003:500 JLINK_ReadMem (0x4001200C, 0x0004 Bytes, ...) -- CPU is running -- CPU_ReadMem(4 bytes @ 0x4001200C) - Data: 00 FE 00 00  returns 0x00 (0000ms, 0220ms total)
T2DC4 003:500 JLINK_ReadMem (0x40011408, 0x0004 Bytes, ...) -- CPU is running -- CPU_ReadMem(4 bytes @ 0x40011408) - Data: FF A3 00 00  returns 0x00 (0001ms, 0221ms total)
T2DC4 003:501 JLINK_ReadMem (0x40012008, 0x0004 Bytes, ...) -- CPU is running -- CPU_ReadMem(4 bytes @ 0x40012008) - Data: 04 FE 00 00  returns 0x00 (0003ms, 0224ms total)
T2DC4 003:504 JLINK_ReadMem (0x40012000, 0x000C Bytes, ...) -- CPU is running -- CPU_ReadMem(12 bytes @ 0x40012000) - Data: 22 44 44 44 24 22 22 22 04 FE 00 00  returns 0x00 (0001ms, 0225ms total)
T2DC4 003:505 JLINK_ReadMem (0x4001200C, 0x0004 Bytes, ...) -- CPU is running -- CPU_ReadMem(4 bytes @ 0x4001200C) - Data: 00 FE 00 00  returns 0x00 (0001ms, 0226ms total)
T2DC4 003:506 JLINK_ReadMem (0x40012018, 0x0004 Bytes, ...) -- CPU is running -- CPU_ReadMem(4 bytes @ 0x40012018) - Data: 00 00 00 00  returns 0x00 (0000ms, 0226ms total)
T2DC4 003:507 JLINK_ReadMem (0x40011400, 0x000C Bytes, ...) -- CPU is running -- CPU_ReadMem(12 bytes @ 0x40011400) - Data: 22 22 22 22 4B 22 42 42 FF A3 00 00  returns 0x00 (0000ms, 0226ms total)
T2DC4 003:508 JLINK_ReadMem (0x4001140C, 0x0004 Bytes, ...) -- CPU is running -- CPU_ReadMem(4 bytes @ 0x4001140C) - Data: FF 00 00 00  returns 0x00 (0000ms, 0227ms total)
T2DC4 003:508 JLINK_ReadMem (0x40011418, 0x0004 Bytes, ...) -- CPU is running -- CPU_ReadMem(4 bytes @ 0x40011418) - Data: 00 00 00 00  returns 0x00 (0001ms, 0228ms total)
T409C 003:509 JLINK_IsHalted()  returns FALSE (0001ms, 0229ms total)
T409C 003:611 JLINK_IsHalted()  returns FALSE (0000ms, 0228ms total)
T409C 003:712 JLINK_IsHalted()  returns FALSE (0000ms, 0228ms total)
T409C 003:813 JLINK_IsHalted()  returns FALSE (0000ms, 0228ms total)
T409C 003:913 JLINK_IsHalted()  returns FALSE (0000ms, 0228ms total)
T409C 004:015 JLINK_ReadMemU32(0xE0001004, 0x0001 Items, ...) -- CPU is running - Data: 38 2C 98 02  returns 0x01 (0000ms, 0228ms total)
T2DC4 004:025 JLINK_ReadMem (0x2000000C, 0x0004 Bytes, ...) -- CPU is running -- CPU_ReadMem(4 bytes @ 0x2000000C) - Data: 00 A2 4A 04  returns 0x00 (0001ms, 0229ms total)
T2DC4 004:026 JLINK_ReadMem (0x4001140C, 0x0004 Bytes, ...) -- CPU is running -- CPU_ReadMem(4 bytes @ 0x4001140C) - Data: FF 00 00 00  returns 0x00 (0001ms, 0230ms total)
T2DC4 004:027 JLINK_ReadMem (0x4001200C, 0x0004 Bytes, ...) -- CPU is running -- CPU_ReadMem(4 bytes @ 0x4001200C) - Data: 00 FE 00 00  returns 0x00 (0000ms, 0230ms total)
T2DC4 004:028 JLINK_ReadMem (0x40011408, 0x0004 Bytes, ...) -- CPU is running -- CPU_ReadMem(4 bytes @ 0x40011408) - Data: FF A3 00 00  returns 0x00 (0000ms, 0231ms total)
T2DC4 004:028 JLINK_ReadMem (0x40012008, 0x0004 Bytes, ...) -- CPU is running -- CPU_ReadMem(4 bytes @ 0x40012008) - Data: 04 FE 00 00  returns 0x00 (0001ms, 0232ms total)
T2DC4 004:029 JLINK_ReadMem (0x40012000, 0x000C Bytes, ...) -- CPU is running -- CPU_ReadMem(12 bytes @ 0x40012000) - Data: 22 44 44 44 24 22 22 22 04 FE 00 00  returns 0x00 (0001ms, 0233ms total)
T2DC4 004:030 JLINK_ReadMem (0x4001200C, 0x0004 Bytes, ...) -- CPU is running -- CPU_ReadMem(4 bytes @ 0x4001200C) - Data: 00 FE 00 00  returns 0x00 (0001ms, 0234ms total)
T2DC4 004:031 JLINK_ReadMem (0x40012018, 0x0004 Bytes, ...) -- CPU is running -- CPU_ReadMem(4 bytes @ 0x40012018) - Data: 00 00 00 00  returns 0x00 (0000ms, 0234ms total)
T2DC4 004:032 JLINK_ReadMem (0x40011400, 0x000C Bytes, ...) -- CPU is running -- CPU_ReadMem(12 bytes @ 0x40011400) - Data: 22 22 22 22 4B 22 42 42 FF A3 00 00  returns 0x00 (0001ms, 0235ms total)
T2DC4 004:033 JLINK_ReadMem (0x4001140C, 0x0004 Bytes, ...) -- CPU is running -- CPU_ReadMem(4 bytes @ 0x4001140C) - Data: FF 00 00 00  returns 0x00 (0000ms, 0235ms total)
T2DC4 004:033 JLINK_ReadMem (0x40011418, 0x0004 Bytes, ...) -- CPU is running -- CPU_ReadMem(4 bytes @ 0x40011418) - Data: 00 00 00 00  returns 0x00 (0001ms, 0236ms total)
T409C 004:034 JLINK_IsHalted()  returns FALSE (0001ms, 0237ms total)
T409C 004:136 JLINK_IsHalted()  returns FALSE (0000ms, 0236ms total)
T409C 004:237 JLINK_IsHalted()  returns FALSE (0000ms, 0236ms total)
T409C 004:338 JLINK_IsHalted()  returns FALSE (0000ms, 0236ms total)
T409C 004:439 JLINK_IsHalted()  returns FALSE (0000ms, 0236ms total)
T409C 004:540 JLINK_ReadMemU32(0xE0001004, 0x0001 Items, ...) -- CPU is running - Data: 38 2C 98 02  returns 0x01 (0000ms, 0236ms total)
T2DC4 004:541 JLINK_ReadMem (0x2000000C, 0x0004 Bytes, ...) -- CPU is running -- CPU_ReadMem(4 bytes @ 0x2000000C) - Data: 00 A2 4A 04  returns 0x00 (0001ms, 0237ms total)
T2DC4 004:542 JLINK_ReadMem (0x4001140C, 0x0004 Bytes, ...) -- CPU is running -- CPU_ReadMem(4 bytes @ 0x4001140C) - Data: FF 00 00 00  returns 0x00 (0000ms, 0237ms total)
T2DC4 004:542 JLINK_ReadMem (0x4001200C, 0x0004 Bytes, ...) -- CPU is running -- CPU_ReadMem(4 bytes @ 0x4001200C) - Data: 00 FE 00 00  returns 0x00 (0001ms, 0238ms total)
T2DC4 004:543 JLINK_ReadMem (0x40011408, 0x0004 Bytes, ...) -- CPU is running -- CPU_ReadMem(4 bytes @ 0x40011408) - Data: FF A3 00 00  returns 0x00 (0000ms, 0238ms total)
T2DC4 004:543 JLINK_ReadMem (0x40012008, 0x0004 Bytes, ...) -- CPU is running -- CPU_ReadMem(4 bytes @ 0x40012008) - Data: 04 FE 00 00  returns 0x00 (0001ms, 0239ms total)
T2DC4 004:544 JLINK_ReadMem (0x40012000, 0x000C Bytes, ...) -- CPU is running -- CPU_ReadMem(12 bytes @ 0x40012000) - Data: 22 44 44 44 24 22 22 22 04 FE 00 00  returns 0x00 (0000ms, 0239ms total)
T2DC4 004:544 JLINK_ReadMem (0x4001200C, 0x0004 Bytes, ...) -- CPU is running -- CPU_ReadMem(4 bytes @ 0x4001200C) - Data: 00 FE 00 00  returns 0x00 (0001ms, 0240ms total)
T2DC4 004:545 JLINK_ReadMem (0x40012018, 0x0004 Bytes, ...) -- CPU is running -- CPU_ReadMem(4 bytes @ 0x40012018) - Data: 00 00 00 00  returns 0x00 (0000ms, 0240ms total)
T2DC4 004:545 JLINK_ReadMem (0x40011400, 0x000C Bytes, ...) -- CPU is running -- CPU_ReadMem(12 bytes @ 0x40011400) - Data: 22 22 22 22 4B 22 42 42 FF A3 00 00  returns 0x00 (0001ms, 0241ms total)
T2DC4 004:546 JLINK_ReadMem (0x4001140C, 0x0004 Bytes, ...) -- CPU is running -- CPU_ReadMem(4 bytes @ 0x4001140C) - Data: FF 00 00 00  returns 0x00 (0000ms, 0241ms total)
T2DC4 004:546 JLINK_ReadMem (0x40011418, 0x0004 Bytes, ...) -- CPU is running -- CPU_ReadMem(4 bytes @ 0x40011418) - Data: 00 00 00 00  returns 0x00 (0001ms, 0242ms total)
T409C 004:547 JLINK_IsHalted()  returns FALSE (0001ms, 0243ms total)
T409C 004:648 JLINK_IsHalted()  returns FALSE (0000ms, 0242ms total)
T409C 004:749 JLINK_IsHalted()  returns FALSE (0000ms, 0242ms total)
T409C 004:850 JLINK_IsHalted()  returns FALSE (0001ms, 0243ms total)
T409C 004:951 JLINK_IsHalted()  returns FALSE (0000ms, 0242ms total)
T409C 005:052 JLINK_ReadMemU32(0xE0001004, 0x0001 Items, ...) -- CPU is running - Data: 38 2C 98 02  returns 0x01 (0000ms, 0242ms total)
T2DC4 005:057 JLINK_ReadMem (0x2000000C, 0x0004 Bytes, ...) -- CPU is running -- CPU_ReadMem(4 bytes @ 0x2000000C) - Data: 00 A2 4A 04  returns 0x00 (0001ms, 0243ms total)
T2DC4 005:058 JLINK_ReadMem (0x4001140C, 0x0004 Bytes, ...) -- CPU is running -- CPU_ReadMem(4 bytes @ 0x4001140C) - Data: FF 00 00 00  returns 0x00 (0001ms, 0244ms total)
T2DC4 005:059 JLINK_ReadMem (0x4001200C, 0x0004 Bytes, ...) -- CPU is running -- CPU_ReadMem(4 bytes @ 0x4001200C) - Data: 00 FE 00 00  returns 0x00 (0001ms, 0245ms total)
T2DC4 005:060 JLINK_ReadMem (0x40011408, 0x0004 Bytes, ...) -- CPU is running -- CPU_ReadMem(4 bytes @ 0x40011408) - Data: FF A3 00 00  returns 0x00 (0001ms, 0246ms total)
T2DC4 005:061 JLINK_ReadMem (0x40012008, 0x0004 Bytes, ...) -- CPU is running -- CPU_ReadMem(4 bytes @ 0x40012008) - Data: 04 FE 00 00  returns 0x00 (0001ms, 0247ms total)
T2DC4 005:062 JLINK_ReadMem (0x40012000, 0x000C Bytes, ...) -- CPU is running -- CPU_ReadMem(12 bytes @ 0x40012000) - Data: 22 44 44 44 24 22 22 22 04 FE 00 00  returns 0x00 (0001ms, 0248ms total)
T2DC4 005:063 JLINK_ReadMem (0x4001200C, 0x0004 Bytes, ...) -- CPU is running -- CPU_ReadMem(4 bytes @ 0x4001200C) - Data: 00 FE 00 00  returns 0x00 (0001ms, 0249ms total)
T2DC4 005:064 JLINK_ReadMem (0x40012018, 0x0004 Bytes, ...) -- CPU is running -- CPU_ReadMem(4 bytes @ 0x40012018) - Data: 00 00 00 00  returns 0x00 (0001ms, 0250ms total)
T2DC4 005:065 JLINK_ReadMem (0x40011400, 0x000C Bytes, ...) -- CPU is running -- CPU_ReadMem(12 bytes @ 0x40011400) - Data: 22 22 22 22 4B 22 42 42 FF A3 00 00  returns 0x00 (0001ms, 0251ms total)
T2DC4 005:066 JLINK_ReadMem (0x4001140C, 0x0004 Bytes, ...) -- CPU is running -- CPU_ReadMem(4 bytes @ 0x4001140C) - Data: FF 00 00 00  returns 0x00 (0001ms, 0252ms total)
T2DC4 005:067 JLINK_ReadMem (0x40011418, 0x0004 Bytes, ...) -- CPU is running -- CPU_ReadMem(4 bytes @ 0x40011418) - Data: 00 00 00 00  returns 0x00 (0001ms, 0253ms total)
T409C 005:069 JLINK_IsHalted()  returns FALSE (0000ms, 0253ms total)
T409C 005:171 JLINK_IsHalted()  returns FALSE (0000ms, 0253ms total)
T409C 005:273 JLINK_IsHalted()  returns FALSE (0000ms, 0253ms total)
T409C 005:374 JLINK_IsHalted()  returns FALSE (0000ms, 0253ms total)
T409C 005:476 JLINK_IsHalted()  returns FALSE (0000ms, 0253ms total)
T409C 005:577 JLINK_ReadMemU32(0xE0001004, 0x0001 Items, ...) -- CPU is running - Data: 38 2C 98 02  returns 0x01 (0000ms, 0253ms total)
T2DC4 005:587 JLINK_ReadMem (0x2000000C, 0x0004 Bytes, ...) -- CPU is running -- CPU_ReadMem(4 bytes @ 0x2000000C) - Data: 00 A2 4A 04  returns 0x00 (0001ms, 0254ms total)
T2DC4 005:588 JLINK_ReadMem (0x4001140C, 0x0004 Bytes, ...) -- CPU is running -- CPU_ReadMem(4 bytes @ 0x4001140C) - Data: FF 00 00 00  returns 0x00 (0001ms, 0255ms total)
T2DC4 005:589 JLINK_ReadMem (0x4001200C, 0x0004 Bytes, ...) -- CPU is running -- CPU_ReadMem(4 bytes @ 0x4001200C) - Data: 00 FE 00 00  returns 0x00 (0001ms, 0256ms total)
T2DC4 005:590 JLINK_ReadMem (0x40011408, 0x0004 Bytes, ...) -- CPU is running -- CPU_ReadMem(4 bytes @ 0x40011408) - Data: FF A3 00 00  returns 0x00 (0000ms, 0256ms total)
T2DC4 005:590 JLINK_ReadMem (0x40012008, 0x0004 Bytes, ...) -- CPU is running -- CPU_ReadMem(4 bytes @ 0x40012008) - Data: 04 FE 00 00  returns 0x00 (0001ms, 0257ms total)
T2DC4 005:591 JLINK_ReadMem (0x40012000, 0x000C Bytes, ...) -- CPU is running -- CPU_ReadMem(12 bytes @ 0x40012000) - Data: 22 44 44 44 24 22 22 22 04 FE 00 00  returns 0x00 (0001ms, 0258ms total)
T2DC4 005:592 JLINK_ReadMem (0x4001200C, 0x0004 Bytes, ...) -- CPU is running -- CPU_ReadMem(4 bytes @ 0x4001200C) - Data: 00 FE 00 00  returns 0x00 (0001ms, 0259ms total)
T2DC4 005:593 JLINK_ReadMem (0x40012018, 0x0004 Bytes, ...) -- CPU is running -- CPU_ReadMem(4 bytes @ 0x40012018) - Data: 00 00 00 00  returns 0x00 (0001ms, 0260ms total)
T2DC4 005:594 JLINK_ReadMem (0x40011400, 0x000C Bytes, ...) -- CPU is running -- CPU_ReadMem(12 bytes @ 0x40011400) - Data: 22 22 22 22 4B 22 42 42 FF A3 00 00  returns 0x00 (0001ms, 0261ms total)
T2DC4 005:595 JLINK_ReadMem (0x4001140C, 0x0004 Bytes, ...) -- CPU is running -- CPU_ReadMem(4 bytes @ 0x4001140C) - Data: FF 00 00 00  returns 0x00 (0001ms, 0262ms total)
T2DC4 005:596 JLINK_ReadMem (0x40011418, 0x0004 Bytes, ...) -- CPU is running -- CPU_ReadMem(4 bytes @ 0x40011418) - Data: 00 00 00 00  returns 0x00 (0000ms, 0262ms total)
T409C 005:597 JLINK_IsHalted()  returns FALSE (0000ms, 0262ms total)
T409C 005:698 JLINK_IsHalted()  returns TRUE (0003ms, 0265ms total)
T409C 005:701 JLINK_Halt()  returns 0x00 (0001ms, 0263ms total)
T409C 005:702 JLINK_IsHalted()  returns TRUE (0000ms, 0263ms total)
T409C 005:702 JLINK_IsHalted()  returns TRUE (0000ms, 0263ms total)
T409C 005:702 JLINK_IsHalted()  returns TRUE (0000ms, 0263ms total)
T409C 005:702 JLINK_ReadReg(R15 (PC))  returns 0x080073B6 (0000ms, 0263ms total)
T409C 005:703 JLINK_ReadReg(XPSR)  returns 0x21000000 (0000ms, 0263ms total)
T409C 005:703 JLINK_ClrBPEx(BPHandle = 0x00000006)  returns 0x00 (0000ms, 0263ms total)
T409C 005:703 JLINK_ClrBPEx(BPHandle = 0x00000007)  returns 0x00 (0000ms, 0263ms total)
T409C 005:703 JLINK_ClrBPEx(BPHandle = 0x00000008)  returns 0x00 (0001ms, 0264ms total)
T409C 005:704 JLINK_ClrBPEx(BPHandle = 0x00000009)  returns 0x00 (0000ms, 0264ms total)
T409C 005:704 JLINK_ReadMemU32(0xE000ED30, 0x0001 Items, ...) -- CPU_ReadMem(4 bytes @ 0xE000ED30) - Data: 03 00 00 00  returns 0x01 (0001ms, 0265ms total)
T409C 005:705 JLINK_ReadMemU32(0xE0001028, 0x0001 Items, ...) -- CPU_ReadMem(4 bytes @ 0xE0001028) - Data: 00 00 00 00  returns 0x01 (0001ms, 0266ms total)
T409C 005:706 JLINK_ReadMemU32(0xE0001038, 0x0001 Items, ...) -- CPU_ReadMem(4 bytes @ 0xE0001038) - Data: 00 02 00 00  returns 0x01 (0001ms, 0267ms total)
T409C 005:707 JLINK_ReadMemU32(0xE0001048, 0x0001 Items, ...) -- CPU_ReadMem(4 bytes @ 0xE0001048) - Data: 00 00 00 00  returns 0x01 (0001ms, 0268ms total)
T409C 005:708 JLINK_ReadMemU32(0xE0001058, 0x0001 Items, ...) -- CPU_ReadMem(4 bytes @ 0xE0001058) - Data: 00 00 00 00  returns 0x01 (0000ms, 0268ms total)
T409C 005:709 JLINK_ReadReg(R0)  returns 0x00000001 (0000ms, 0269ms total)
T409C 005:709 JLINK_ReadReg(R1)  returns 0x20000880 (0000ms, 0269ms total)
T409C 005:709 JLINK_ReadReg(R2)  returns 0x0000000A (0000ms, 0269ms total)
T409C 005:709 JLINK_ReadReg(R3)  returns 0x200004C4 (0001ms, 0270ms total)
T409C 005:710 JLINK_ReadReg(R4)  returns 0x08007B2C (0000ms, 0270ms total)
T409C 005:710 JLINK_ReadReg(R5)  returns 0x08007B2C (0000ms, 0270ms total)
T409C 005:710 JLINK_ReadReg(R6)  returns 0x00000000 (0000ms, 0270ms total)
T409C 005:710 JLINK_ReadReg(R7)  returns 0x00000000 (0000ms, 0270ms total)
T409C 005:711 JLINK_ReadReg(R8)  returns 0x00000000 (0000ms, 0271ms total)
T409C 005:711 JLINK_ReadReg(R9)  returns 0x20000160 (0000ms, 0271ms total)
T409C 005:711 JLINK_ReadReg(R10)  returns 0x00000000 (0000ms, 0271ms total)
T409C 005:711 JLINK_ReadReg(R11)  returns 0x00000000 (0000ms, 0271ms total)
T409C 005:711 JLINK_ReadReg(R12)  returns 0x00000004 (0001ms, 0272ms total)
T409C 005:712 JLINK_ReadReg(R13 (SP))  returns 0x20000DC8 (0000ms, 0272ms total)
T409C 005:712 JLINK_ReadReg(R14)  returns 0x08004963 (0000ms, 0272ms total)
T409C 005:712 JLINK_ReadReg(R15 (PC))  returns 0x080073B6 (0000ms, 0272ms total)
T409C 005:712 JLINK_ReadReg(XPSR)  returns 0x21000000 (0001ms, 0273ms total)
T409C 005:713 JLINK_ReadReg(MSP)  returns 0x20000DC8 (0000ms, 0273ms total)
T409C 005:713 JLINK_ReadReg(PSP)  returns 0x20001000 (0000ms, 0273ms total)
T409C 005:713 JLINK_ReadReg(CFBP)  returns 0x00000000 (0000ms, 0273ms total)
T2DC4 005:714 JLINK_ReadMem (0x20000DD4, 0x0004 Bytes, ...) -- CPU_ReadMem(64 bytes @ 0x20000DC0) -- Updating C cache (64 bytes @ 0x20000DC0) -- Read from C cache (4 bytes @ 0x20000DD4) - Data: 21 0F 00 08  returns 0x00 (0002ms, 0275ms total)
T2DC4 005:716 JLINK_ReadMem (0x00000000, 0x0004 Bytes, ...) -- CPU_ReadMem(4 bytes @ 0x00000004) -- CPU_ReadMem(64 bytes @ 0x08000000) -- Updating C cache (64 bytes @ 0x08000000) -- Read from C cache (4 bytes @ 0x08000000) - Data: D8 0D 00 20  returns 0x00 (0002ms, 0277ms total)
T2DC4 005:725 JLINK_ReadMem (0x2000000C, 0x0004 Bytes, ...) -- CPU_ReadMem(64 bytes @ 0x20000000) -- Updating C cache (64 bytes @ 0x20000000) -- Read from C cache (4 bytes @ 0x2000000C) - Data: 00 A2 4A 04  returns 0x00 (0002ms, 0279ms total)
T2DC4 005:727 JLINK_ReadMem (0x4001140C, 0x0004 Bytes, ...) -- CPU_ReadMem(4 bytes @ 0x4001140C) - Data: FF 00 00 00  returns 0x00 (0001ms, 0280ms total)
T2DC4 005:728 JLINK_ReadMem (0x4001200C, 0x0004 Bytes, ...) -- CPU_ReadMem(4 bytes @ 0x4001200C) - Data: 00 FE 00 00  returns 0x00 (0001ms, 0281ms total)
T2DC4 005:729 JLINK_ReadMem (0x40011408, 0x0004 Bytes, ...) -- CPU_ReadMem(4 bytes @ 0x40011408) - Data: FF A3 00 00  returns 0x00 (0001ms, 0282ms total)
T2DC4 005:730 JLINK_ReadMem (0x40012008, 0x0004 Bytes, ...) -- CPU_ReadMem(4 bytes @ 0x40012008) - Data: 04 FE 00 00  returns 0x00 (0001ms, 0283ms total)
T2DC4 005:734 JLINK_ReadMem (0x40012000, 0x000C Bytes, ...) -- CPU_ReadMem(12 bytes @ 0x40012000) - Data: 22 44 44 44 24 22 22 22 04 FE 00 00  returns 0x00 (0001ms, 0284ms total)
T2DC4 005:735 JLINK_ReadMem (0x4001200C, 0x0004 Bytes, ...) -- CPU_ReadMem(4 bytes @ 0x4001200C) - Data: 00 FE 00 00  returns 0x00 (0002ms, 0286ms total)
T2DC4 005:737 JLINK_ReadMem (0x40012018, 0x0004 Bytes, ...) -- CPU_ReadMem(4 bytes @ 0x40012018) - Data: 00 00 00 00  returns 0x00 (0000ms, 0286ms total)
T2DC4 005:738 JLINK_ReadMem (0x40011400, 0x000C Bytes, ...) -- CPU_ReadMem(12 bytes @ 0x40011400) - Data: 22 22 22 22 4B 22 42 42 FF A3 00 00  returns 0x00 (0001ms, 0287ms total)
T2DC4 005:739 JLINK_ReadMem (0x4001140C, 0x0004 Bytes, ...) -- CPU_ReadMem(4 bytes @ 0x4001140C) - Data: FF 00 00 00  returns 0x00 (0001ms, 0288ms total)
T2DC4 005:740 JLINK_ReadMem (0x40011418, 0x0004 Bytes, ...) -- CPU_ReadMem(4 bytes @ 0x40011418) - Data: 00 00 00 00  returns 0x00 (0000ms, 0288ms total)
T409C 006:743 JLINK_Step() -- CPU_ReadMem(64 bytes @ 0x08007380) -- Updating C cache (64 bytes @ 0x08007380) -- Read from C cache (2 bytes @ 0x080073B6) -- CPU_ReadMem(4 bytes @ 0xE000ED18) -- CPU_WriteMem(4 bytes @ 0xE000ED18) -- CPU_ReadMem(4 bytes @ 0xE000ED18) -- CPU_WriteMem(4 bytes @ 0xE000ED18) -- CPU_ReadMem(64 bytes @ 0x08007640) -- Updating C cache (64 bytes @ 0x08007640) -- Read from C cache (4 bytes @ 0x08007670) -- Simulated  returns 0x00 (0005ms, 0293ms total)
T409C 006:748 JLINK_ReadReg(R15 (PC))  returns 0x080073B8 (0000ms, 0293ms total)
T409C 006:748 JLINK_ReadReg(XPSR)  returns 0x21000000 (0000ms, 0293ms total)
T409C 006:748 JLINK_SetBPEx(Addr = 0x08006364, Type = 0xFFFFFFF2)  returns 0x0000000A (0000ms, 0293ms total)
T409C 006:748 JLINK_SetBPEx(Addr = 0x080064DC, Type = 0xFFFFFFF2)  returns 0x0000000B (0000ms, 0293ms total)
T409C 006:748 JLINK_SetBPEx(Addr = 0x08006952, Type = 0xFFFFFFF2)  returns 0x0000000C (0000ms, 0293ms total)
T409C 006:748 JLINK_SetBPEx(Addr = 0x080073B6, Type = 0xFFFFFFF2)  returns 0x0000000D (0000ms, 0293ms total)
T409C 006:748 JLINK_Go() -- CPU_WriteMem(4 bytes @ 0xE0002000) -- CPU_WriteMem(4 bytes @ 0xE0002000) -- CPU_WriteMem(4 bytes @ 0xE0002000) -- CPU_WriteMem(4 bytes @ 0xE0002000) -- CPU_ReadMem(4 bytes @ 0xE0001000) -- CPU_WriteMem(4 bytes @ 0xE0001004) (0004ms, 0297ms total)
T409C 006:852 JLINK_IsHalted()  returns FALSE (0000ms, 0297ms total)
T409C 006:954 JLINK_IsHalted()  returns FALSE (0000ms, 0297ms total)
T409C 007:056 JLINK_IsHalted()  returns FALSE (0000ms, 0297ms total)
T409C 007:158 JLINK_IsHalted()  returns FALSE (0000ms, 0297ms total)
T409C 007:259 JLINK_IsHalted()  returns FALSE (0000ms, 0297ms total)
T409C 007:361 JLINK_ReadMemU32(0xE0001004, 0x0001 Items, ...) -- CPU is running -- CPU_ReadMem(4 bytes @ 0xE0001004) - Data: 78 61 36 05  returns 0x01 (0000ms, 0297ms total)
T2DC4 007:363 JLINK_ReadMem (0x2000000C, 0x0004 Bytes, ...) -- CPU is running -- CPU_ReadMem(4 bytes @ 0x2000000C) - Data: 00 A2 4A 04  returns 0x00 (0000ms, 0297ms total)
T2DC4 007:363 JLINK_ReadMem (0x4001140C, 0x0004 Bytes, ...) -- CPU is running -- CPU_ReadMem(4 bytes @ 0x4001140C) - Data: F7 00 00 00  returns 0x00 (0001ms, 0298ms total)
T2DC4 007:364 JLINK_ReadMem (0x4001200C, 0x0004 Bytes, ...) -- CPU is running -- CPU_ReadMem(4 bytes @ 0x4001200C) - Data: 00 FE 00 00  returns 0x00 (0000ms, 0298ms total)
T2DC4 007:364 JLINK_ReadMem (0x40011408, 0x0004 Bytes, ...) -- CPU is running -- CPU_ReadMem(4 bytes @ 0x40011408) - Data: F7 A3 00 00  returns 0x00 (0001ms, 0299ms total)
T2DC4 007:365 JLINK_ReadMem (0x40012008, 0x0004 Bytes, ...) -- CPU is running -- CPU_ReadMem(4 bytes @ 0x40012008) - Data: 04 FE 00 00  returns 0x00 (0000ms, 0299ms total)
T2DC4 007:365 JLINK_ReadMem (0x40012000, 0x000C Bytes, ...) -- CPU is running -- CPU_ReadMem(12 bytes @ 0x40012000) - Data: 22 44 44 44 24 22 22 22 04 FE 00 00  returns 0x00 (0001ms, 0300ms total)
T2DC4 007:366 JLINK_ReadMem (0x4001200C, 0x0004 Bytes, ...) -- CPU is running -- CPU_ReadMem(4 bytes @ 0x4001200C) - Data: 00 FE 00 00  returns 0x00 (0000ms, 0300ms total)
T2DC4 007:366 JLINK_ReadMem (0x40012018, 0x0004 Bytes, ...) -- CPU is running -- CPU_ReadMem(4 bytes @ 0x40012018) - Data: 00 00 00 00  returns 0x00 (0001ms, 0301ms total)
T2DC4 007:367 JLINK_ReadMem (0x40011400, 0x000C Bytes, ...) -- CPU is running -- CPU_ReadMem(12 bytes @ 0x40011400) - Data: 22 22 22 22 4B 22 42 42 F7 A3 00 00  returns 0x00 (0000ms, 0301ms total)
T2DC4 007:367 JLINK_ReadMem (0x4001140C, 0x0004 Bytes, ...) -- CPU is running -- CPU_ReadMem(4 bytes @ 0x4001140C) - Data: F7 00 00 00  returns 0x00 (0001ms, 0302ms total)
T2DC4 007:368 JLINK_ReadMem (0x40011418, 0x0004 Bytes, ...) -- CPU is running -- CPU_ReadMem(4 bytes @ 0x40011418) - Data: 00 00 00 00  returns 0x00 (0000ms, 0302ms total)
T409C 007:369 JLINK_IsHalted()  returns FALSE (0000ms, 0302ms total)
T409C 007:471 JLINK_IsHalted()  returns FALSE (0000ms, 0302ms total)
T409C 007:572 JLINK_IsHalted()  returns FALSE (0000ms, 0302ms total)
T409C 007:674 JLINK_IsHalted()  returns FALSE (0000ms, 0302ms total)
T409C 007:776 JLINK_IsHalted()  returns FALSE (0000ms, 0302ms total)
T409C 007:878 JLINK_ReadMemU32(0xE0001004, 0x0001 Items, ...) -- CPU is running - Data: 78 61 36 05  returns 0x01 (0000ms, 0302ms total)
T2DC4 007:883 JLINK_ReadMem (0x2000000C, 0x0004 Bytes, ...) -- CPU is running -- CPU_ReadMem(4 bytes @ 0x2000000C) - Data: 00 A2 4A 04  returns 0x00 (0000ms, 0302ms total)
T2DC4 007:883 JLINK_ReadMem (0x4001140C, 0x0004 Bytes, ...) -- CPU is running -- CPU_ReadMem(4 bytes @ 0x4001140C) - Data: F7 00 00 00  returns 0x00 (0001ms, 0303ms total)
T2DC4 007:884 JLINK_ReadMem (0x4001200C, 0x0004 Bytes, ...) -- CPU is running -- CPU_ReadMem(4 bytes @ 0x4001200C) - Data: 00 FE 00 00  returns 0x00 (0001ms, 0304ms total)
T2DC4 007:885 JLINK_ReadMem (0x40011408, 0x0004 Bytes, ...) -- CPU is running -- CPU_ReadMem(4 bytes @ 0x40011408) - Data: F7 A3 00 00  returns 0x00 (0000ms, 0304ms total)
T2DC4 007:886 JLINK_ReadMem (0x40012008, 0x0004 Bytes, ...) -- CPU is running -- CPU_ReadMem(4 bytes @ 0x40012008) - Data: 04 FE 00 00  returns 0x00 (0000ms, 0304ms total)
T2DC4 007:886 JLINK_ReadMem (0x40012000, 0x000C Bytes, ...) -- CPU is running -- CPU_ReadMem(12 bytes @ 0x40012000) - Data: 22 44 44 44 24 22 22 22 04 FE 00 00  returns 0x00 (0001ms, 0305ms total)
T2DC4 007:887 JLINK_ReadMem (0x4001200C, 0x0004 Bytes, ...) -- CPU is running -- CPU_ReadMem(4 bytes @ 0x4001200C) - Data: 00 FE 00 00  returns 0x00 (0001ms, 0306ms total)
T2DC4 007:888 JLINK_ReadMem (0x40012018, 0x0004 Bytes, ...) -- CPU is running -- CPU_ReadMem(4 bytes @ 0x40012018) - Data: 00 00 00 00  returns 0x00 (0000ms, 0306ms total)
T2DC4 007:889 JLINK_ReadMem (0x40011400, 0x000C Bytes, ...) -- CPU is running -- CPU_ReadMem(12 bytes @ 0x40011400) - Data: 22 22 22 22 4B 22 42 42 F7 A3 00 00  returns 0x00 (0001ms, 0307ms total)
T2DC4 007:890 JLINK_ReadMem (0x4001140C, 0x0004 Bytes, ...) -- CPU is running -- CPU_ReadMem(4 bytes @ 0x4001140C) - Data: F7 00 00 00  returns 0x00 (0000ms, 0307ms total)
T2DC4 007:890 JLINK_ReadMem (0x40011418, 0x0004 Bytes, ...) -- CPU is running -- CPU_ReadMem(4 bytes @ 0x40011418) - Data: 00 00 00 00  returns 0x00 (0001ms, 0308ms total)
T409C 007:892 JLINK_IsHalted()  returns FALSE (0000ms, 0308ms total)
T409C 007:993 JLINK_IsHalted()  returns FALSE (0001ms, 0309ms total)
T409C 008:095 JLINK_IsHalted()  returns FALSE (0000ms, 0308ms total)
T409C 008:196 JLINK_IsHalted()  returns FALSE (0000ms, 0308ms total)
T409C 008:298 JLINK_IsHalted()  returns FALSE (0000ms, 0308ms total)
T409C 008:399 JLINK_ReadMemU32(0xE0001004, 0x0001 Items, ...) -- CPU is running - Data: 78 61 36 05  returns 0x01 (0000ms, 0308ms total)
T2DC4 008:407 JLINK_ReadMem (0x2000000C, 0x0004 Bytes, ...) -- CPU is running -- CPU_ReadMem(4 bytes @ 0x2000000C) - Data: 00 A2 4A 04  returns 0x00 (0001ms, 0309ms total)
T2DC4 008:408 JLINK_ReadMem (0x4001140C, 0x0004 Bytes, ...) -- CPU is running -- CPU_ReadMem(4 bytes @ 0x4001140C) - Data: F7 00 00 00  returns 0x00 (0001ms, 0310ms total)
T2DC4 008:409 JLINK_ReadMem (0x4001200C, 0x0004 Bytes, ...) -- CPU is running -- CPU_ReadMem(4 bytes @ 0x4001200C) - Data: 00 FE 00 00  returns 0x00 (0001ms, 0311ms total)
T2DC4 008:410 JLINK_ReadMem (0x40011408, 0x0004 Bytes, ...) -- CPU is running -- CPU_ReadMem(4 bytes @ 0x40011408) - Data: F7 A3 00 00  returns 0x00 (0001ms, 0312ms total)
T2DC4 008:411 JLINK_ReadMem (0x40012008, 0x0004 Bytes, ...) -- CPU is running -- CPU_ReadMem(4 bytes @ 0x40012008) - Data: 04 FE 00 00  returns 0x00 (0001ms, 0313ms total)
T2DC4 008:413 JLINK_ReadMem (0x40012000, 0x000C Bytes, ...) -- CPU is running -- CPU_ReadMem(12 bytes @ 0x40012000) - Data: 22 44 44 44 24 22 22 22 04 FE 00 00  returns 0x00 (0000ms, 0313ms total)
T2DC4 008:414 JLINK_ReadMem (0x4001200C, 0x0004 Bytes, ...) -- CPU is running -- CPU_ReadMem(4 bytes @ 0x4001200C) - Data: 00 FE 00 00  returns 0x00 (0000ms, 0313ms total)
T2DC4 008:414 JLINK_ReadMem (0x40012018, 0x0004 Bytes, ...) -- CPU is running -- CPU_ReadMem(4 bytes @ 0x40012018) - Data: 00 00 00 00  returns 0x00 (0001ms, 0314ms total)
T2DC4 008:416 JLINK_ReadMem (0x40011400, 0x000C Bytes, ...) -- CPU is running -- CPU_ReadMem(12 bytes @ 0x40011400) - Data: 22 22 22 22 4B 22 42 42 F7 A3 00 00  returns 0x00 (0001ms, 0315ms total)
T2DC4 008:417 JLINK_ReadMem (0x4001140C, 0x0004 Bytes, ...) -- CPU is running -- CPU_ReadMem(4 bytes @ 0x4001140C) - Data: F7 00 00 00  returns 0x00 (0000ms, 0315ms total)
